#Digilent WaveForms Logic Analyzer Acquisition
#Device Name: Discovery2
#Serial Number: SN:210321AA2ABB
#Date Time: 2024-08-13 19:39:39.188
#Sample rate: 511.999Hz
#Samples: 4096

Time (s),Data,DV,MISO,MOSI,SCK
-2.39844364,2363,1,1,0,1
-2.39649051,2325,1,1,0,1
-2.39453738,2282,1,1,0,1
-2.39258425,2237,1,1,0,1
-2.39063112,2193,1,1,0,1
-2.38867799,2143,1,1,0,1
-2.38672486,2093,1,1,0,1
-2.38477173,2038,1,1,0,1
-2.3828186,1981,1,1,0,1
-2.38086547,1923,1,1,0,1
-2.37891234,1866,1,1,0,1
-2.37695921,1814,1,1,0,1
-2.37500608,1764,1,1,0,1
-2.37305295,1714,1,1,0,1
-2.37109982,1662,1,1,0,1
-2.36914669,1612,1,1,0,1
-2.36719356,1563,1,1,0,1
-2.36524043,1513,1,1,0,1
-2.3632873,1467,1,1,0,1
-2.36133417,1424,0,0,0,0
-2.35938104,1024,0,1,0,0
-2.35742791,0,0,1,1,0
-2.35547478,1354,1,1,0,1
-2.35352165,1326,1,1,0,1
-2.35156852,1302,1,1,0,1
-2.34961539,1279,1,1,0,1
-2.34766226,1259,1,1,0,1
-2.34570913,1243,1,1,0,1
-2.343756,1229,1,1,0,1
-2.34180287,1219,1,1,0,1
-2.33984974,1214,1,1,0,1
-2.33789661,1218,1,1,0,1
-2.33594348,1225,1,1,0,1
-2.33399035,1231,1,1,0,1
-2.33203722,1240,1,1,0,1
-2.33008409,1249,1,1,0,1
-2.32813096,1258,1,1,0,1
-2.32617783,1267,1,1,0,1
-2.3242247,1277,1,1,0,1
-2.32227157,1289,1,1,0,1
-2.32031844,1302,1,1,0,1
-2.31836531,1318,1,1,0,1
-2.31641218,1330,1,1,0,1
-2.31445905,1343,1,1,0,1
-2.31250592,1357,1,1,0,1
-2.31055279,1369,1,1,0,1
-2.30859966,1379,1,1,0,1
-2.30664653,1393,1,1,0,1
-2.3046934,1411,1,1,0,1
-2.30274027,1428,1,1,0,1
-2.30078714,1442,1,1,0,1
-2.29883401,1453,1,1,0,1
-2.29688088,1465,1,1,0,1
-2.29492775,1475,1,1,0,1
-2.29297462,1483,1,1,0,1
-2.29102149,1493,1,1,0,1
-2.28906836,1506,1,1,0,1
-2.28711523,1521,1,1,0,1
-2.2851621,1535,1,1,0,1
-2.28320897,1556,1,1,0,1
-2.28125584,1573,1,1,0,1
-2.27930271,1587,1,1,0,1
-2.27734958,1568,0,1,0,0
-2.27539645,1024,0,1,0,0
-2.27344332,0,0,1,1,0
-2.27149019,1627,1,1,0,1
-2.26953706,1642,1,1,0,1
-2.26758393,1657,1,1,0,1
-2.2656308,1671,1,1,0,1
-2.26367767,1682,1,1,0,1
-2.26172454,1689,1,1,0,1
-2.25977141,1692,1,1,0,1
-2.25781828,1693,1,1,0,1
-2.25586515,1694,1,1,0,1
-2.25391202,1697,1,1,0,1
-2.25195889,1700,1,1,0,1
-2.25000576,1701,1,1,0,1
-2.24805263,1703,1,1,0,1
-2.2460995,1705,1,1,0,1
-2.24414637,1707,1,1,0,1
-2.24219324,1711,1,1,0,1
-2.24024011,1716,1,1,0,1
-2.23828698,1722,1,1,0,1
-2.23633385,1729,1,1,0,1
-2.23438072,1734,1,1,0,1
-2.23242759,1734,1,1,0,1
-2.23047446,1734,1,1,0,1
-2.22852133,1737,1,1,0,1
-2.2265682,1740,1,1,0,1
-2.22461507,1746,1,1,0,1
-2.22266194,1755,1,1,0,1
-2.22070881,1763,1,1,0,1
-2.21875568,1767,1,1,0,1
-2.21680255,1768,1,1,0,1
-2.21484942,1768,1,1,0,1
-2.21289629,1770,1,1,0,1
-2.21094316,1773,1,1,0,1
-2.20899003,1778,1,1,0,1
-2.2070369,1783,1,1,0,1
-2.20508377,1786,1,1,0,1
-2.20313064,1787,1,1,0,1
-2.20117751,1788,1,1,0,1
-2.19922438,1787,1,1,0,1
-2.19727125,1783,1,1,0,1
-2.19531812,1780,0,0,0,0
-2.19336499,1664,0,1,0,0
-2.19141186,0,0,0,0,0
-2.18945873,1781,1,1,0,1
-2.1875056,1779,1,1,0,1
-2.18555247,1778,1,1,0,1
-2.18359934,1779,1,1,0,1
-2.18164621,1783,1,1,0,1
-2.17969308,1786,1,1,0,1
-2.17773995,1790,1,1,0,1
-2.17578682,1796,1,1,0,1
-2.17383369,1800,1,1,0,1
-2.17188056,1807,1,1,0,1
-2.16992743,1814,1,1,0,1
-2.1679743,1819,1,1,0,1
-2.16602117,1822,1,1,0,1
-2.16406804,1825,1,1,0,1
-2.16211491,1827,1,1,0,1
-2.16016178,1830,1,1,0,1
-2.15820865,1834,1,1,0,1
-2.15625552,1839,1,1,0,1
-2.15430239,1845,1,1,0,1
-2.15234926,1851,1,1,0,1
-2.15039613,1859,1,1,0,1
-2.148443,1863,1,1,0,1
-2.14648987,1867,1,1,0,1
-2.14453674,1870,1,1,0,1
-2.14258361,1875,1,1,0,1
-2.14063048,1881,1,1,0,1
-2.13867735,1887,1,1,0,1
-2.13672422,1893,1,1,0,1
-2.13477109,1898,1,1,0,1
-2.13281796,1901,1,1,0,1
-2.13086483,1903,1,1,0,1
-2.1289117,1905,1,1,0,1
-2.12695857,1907,1,1,0,1
-2.12500544,1911,1,1,0,1
-2.12305231,1915,1,1,0,1
-2.12109918,1917,1,1,0,1
-2.11914605,1916,1,1,0,1
-2.11719292,1913,1,1,0,1
-2.11523979,1907,1,1,0,1
-2.11328666,1902,1,0,0,1
-2.11133353,1896,0,1,0,0
-2.1093804,1792,0,1,0,0
-2.10742727,0,0,1,1,0
-2.10547414,1907,1,1,0,1
-2.10352101,1914,1,1,0,1
-2.10156788,1923,1,1,0,1
-2.09961475,1927,1,1,0,1
-2.09766162,1931,1,1,0,1
-2.09570849,1934,1,1,0,1
-2.09375536,1937,1,1,0,1
-2.09180223,1934,1,1,0,1
-2.0898491,1933,1,1,0,1
-2.08789597,1937,1,1,0,1
-2.08594284,1943,1,1,0,1
-2.08398971,1951,1,1,0,1
-2.08203658,1957,1,1,0,1
-2.08008345,1959,1,1,0,1
-2.07813032,1959,1,1,0,1
-2.07617719,1959,1,1,0,1
-2.07422406,1960,1,1,0,1
-2.07227093,1963,1,1,0,1
-2.0703178,1966,1,1,0,1
-2.06836467,1966,1,1,0,1
-2.06641154,1964,1,1,0,1
-2.06445841,1959,1,1,0,1
-2.06250528,1955,1,1,0,1
-2.06055215,1953,1,1,0,1
-2.05859902,1951,1,1,0,1
-2.05664589,1951,1,1,0,1
-2.05469276,1955,1,1,0,1
-2.05273963,1956,1,1,0,1
-2.0507865,1955,1,1,0,1
-2.04883337,1951,1,1,0,1
-2.04688024,1951,1,1,0,1
-2.04492711,1951,1,1,0,1
-2.04297398,1951,1,1,0,1
-2.04102085,1953,1,1,0,1
-2.03906772,1957,1,1,0,1
-2.03711459,1963,1,1,0,1
-2.03516146,1971,1,1,0,1
-2.03320833,1972,1,1,0,1
-2.0312552,1973,1,1,0,1
-2.02930207,1971,1,1,0,1
-2.02734894,1952,0,1,0,0
-2.02539581,1024,0,1,0,0
-2.02344268,0,0,1,1,0
-2.02148955,1967,1,1,0,1
-2.01953642,1973,1,1,0,1
-2.01758329,1978,1,1,0,1
-2.01563016,1983,1,1,0,1
-2.01367703,1986,1,1,0,1
-2.0117239,1987,1,1,0,1
-2.00977077,1989,1,1,0,1
-2.00781764,1990,1,1,0,1
-2.00586451,1991,1,1,0,1
-2.00391138,1995,1,1,0,1
-2.00195825,1997,1,1,0,1
-2.00000512,2001,1,1,0,1
-1.99805199,2005,1,1,0,1
-1.99609886,2009,1,1,0,1
-1.99414573,2011,1,1,0,1
-1.9921926,2014,1,1,0,1
-1.99023947,2021,1,1,0,1
-1.98828634,2027,1,1,0,1
-1.98633321,2037,1,1,0,1
-1.98438008,2045,1,1,0,1
-1.98242695,2055,1,1,0,1
-1.98047382,2060,1,1,0,1
-1.97852069,2063,1,1,0,1
-1.97656756,2069,1,1,0,1
-1.97461443,2077,1,1,0,1
-1.9726613,2086,1,1,0,1
-1.97070817,2093,1,1,0,1
-1.96875504,2100,1,1,0,1
-1.96680191,2107,1,1,0,1
-1.96484878,2111,1,1,0,1
-1.96289565,2116,1,1,0,1
-1.96094252,2121,1,1,0,1
-1.95898939,2127,1,1,0,1
-1.95703626,2133,1,1,0,1
-1.95508313,2138,1,1,0,1
-1.95313,2138,1,1,0,1
-1.95117687,2141,1,1,0,1
-1.94922374,2145,1,1,0,1
-1.94727061,2150,1,1,0,1
-1.94531748,2152,0,0,0,0
-1.94336435,2048,0,1,0,0
-1.94141122,0,0,1,0,0
-1.93945809,0,0,1,1,0
-1.93750496,2166,1,1,0,1
-1.93555183,2173,1,1,0,1
-1.9335987,2179,1,1,0,1
-1.93164557,2183,1,1,0,1
-1.92969244,2189,1,1,0,1
-1.92773931,2195,1,1,0,1
-1.92578618,2203,1,1,0,1
-1.92383305,2217,1,1,0,1
-1.92187992,2235,1,1,0,1
-1.91992679,2254,1,1,0,1
-1.91797366,2268,1,1,0,1
-1.91602053,2277,1,1,0,1
-1.9140674,2278,1,1,0,1
-1.91211427,2275,1,1,0,1
-1.91016114,2265,1,1,0,1
-1.90820801,2254,1,1,0,1
-1.90625488,2242,1,1,0,1
-1.90430175,2229,1,1,0,1
-1.90234862,2215,1,1,0,1
-1.90039549,2196,1,1,0,1
-1.89844236,2174,1,1,0,1
-1.89648923,2153,1,1,0,1
-1.8945361,2131,1,1,0,1
-1.89258297,2106,1,1,0,1
-1.89062984,2078,1,1,0,1
-1.88867671,2047,1,1,0,1
-1.88672358,2018,1,1,0,1
-1.88477045,1986,1,1,0,1
-1.88281732,1953,1,1,0,1
-1.88086419,1923,1,1,0,1
-1.87891106,1897,1,1,0,1
-1.87695793,1877,1,1,0,1
-1.8750048,1860,1,1,0,1
-1.87305167,1847,1,1,0,1
-1.87109854,1842,1,1,0,1
-1.86914541,1839,1,1,0,1
-1.86719228,1838,1,1,0,1
-1.86523915,1838,1,1,0,1
-1.86328602,1838,1,0,0,1
-1.86133289,1840,0,0,0,0
-1.85937976,1792,0,1,0,0
-1.85742663,0,0,1,1,0
-1.8554735,1854,1,1,0,1
-1.85352037,1865,1,1,0,1
-1.85156724,1869,1,1,0,1
-1.84961411,1870,1,1,0,1
-1.84766098,1870,1,1,0,1
-1.84570785,1869,1,1,0,1
-1.84375472,1867,1,1,0,1
-1.84180159,1865,1,1,0,1
-1.83984846,1866,1,1,0,1
-1.83789533,1871,1,1,0,1
-1.8359422,1878,1,1,0,1
-1.83398907,1885,1,1,0,1
-1.83203594,1892,1,1,0,1
-1.83008281,1898,1,1,0,1
-1.82812968,1907,1,1,0,1
-1.82617655,1918,1,1,0,1
-1.82422342,1935,1,1,0,1
-1.82227029,1951,1,1,0,1
-1.82031716,1962,1,1,0,1
-1.81836403,1966,1,1,0,1
-1.8164109,1970,1,1,0,1
-1.81445777,1973,1,1,0,1
-1.81250464,1982,1,1,0,1
-1.81055151,2011,1,1,0,1
-1.80859838,2076,1,1,0,1
-1.80664525,2179,1,1,0,1
-1.80469212,2323,1,1,0,1
-1.80273899,2514,1,1,0,1
-1.80078586,2751,1,1,0,1
-1.79883273,3042,1,1,0,1
-1.7968796,3380,1,1,0,1
-1.79492647,3746,1,1,0,1
-1.79297334,4030,1,1,0,1
-1.79102021,4059,1,1,0,1
-1.78906708,4061,1,1,0,1
-1.78711395,4062,1,1,0,1
-1.78516082,4061,1,1,0,1
-1.78320769,4061,1,1,0,1
-1.78125456,4003,1,1,0,1
-1.77930143,3781,1,1,0,1
-1.7773483,3424,0,0,0,0
-1.77539517,2048,0,1,0,0
-1.77344204,0,0,1,1,0
-1.77148891,2449,1,1,0,1
-1.76953578,1838,1,1,0,1
-1.76758265,1196,1,1,0,1
-1.76562952,569,1,1,0,1
-1.76367639,68,1,1,0,1
-1.76172326,3,1,1,0,1
-1.75977013,0,1,1,0,1
-1.757817,0,1,1,0,1
-1.75586387,0,1,1,0,1
-1.75391074,0,1,1,0,1
-1.75195761,0,1,1,0,1
-1.75000448,0,1,1,0,1
-1.74805135,0,1,1,0,1
-1.74609822,0,1,1,0,1
-1.74414509,0,1,1,0,1
-1.74219196,0,1,1,0,1
-1.74023883,0,1,1,0,1
-1.7382857,10,1,1,0,1
-1.73633257,102,1,1,0,1
-1.73437944,263,1,1,0,1
-1.73242631,475,1,1,0,1
-1.73047318,725,1,1,0,1
-1.72852005,994,1,1,0,1
-1.72656692,1263,1,1,0,1
-1.72461379,1521,1,1,0,1
-1.72266066,1756,1,1,0,1
-1.72070753,1963,1,1,0,1
-1.7187544,2141,1,1,0,1
-1.71680127,2285,1,1,0,1
-1.71484814,2399,1,1,0,1
-1.71289501,2487,1,1,0,1
-1.71094188,2554,1,1,0,1
-1.70898875,2602,1,1,0,1
-1.70703562,2631,1,1,0,1
-1.70508249,2646,1,1,0,1
-1.70312936,2652,1,1,0,1
-1.70117623,2650,1,1,0,1
-1.6992231,2642,1,1,0,1
-1.69726997,2631,1,1,0,1
-1.69531684,2618,0,1,0,0
-1.69336371,2560,0,0,0,0
-1.69141058,0,0,1,0,0
-1.68945745,0,0,1,1,0
-1.68750432,2565,1,1,0,1
-1.68555119,2547,1,1,0,1
-1.68359806,2532,1,1,0,1
-1.68164493,2519,1,1,0,1
-1.6796918,2509,1,1,0,1
-1.67773867,2498,1,1,0,1
-1.67578554,2490,1,1,0,1
-1.67383241,2486,1,1,0,1
-1.67187928,2484,1,1,0,1
-1.66992615,2483,1,1,0,1
-1.66797302,2478,1,1,0,1
-1.66601989,2473,1,1,0,1
-1.66406676,2468,1,1,0,1
-1.66211363,2465,1,1,0,1
-1.6601605,2463,1,1,0,1
-1.65820737,2463,1,1,0,1
-1.65625424,2463,1,1,0,1
-1.65430111,2463,1,1,0,1
-1.65234798,2460,1,1,0,1
-1.65039485,2458,1,1,0,1
-1.64844172,2457,1,1,0,1
-1.64648859,2455,1,1,0,1
-1.64453546,2452,1,1,0,1
-1.64258233,2447,1,1,0,1
-1.6406292,2442,1,1,0,1
-1.63867607,2438,1,1,0,1
-1.63672294,2429,1,1,0,1
-1.63476981,2419,1,1,0,1
-1.63281668,2410,1,1,0,1
-1.63086355,2396,1,1,0,1
-1.62891042,2383,1,1,0,1
-1.62695729,2377,1,1,0,1
-1.62500416,2373,1,1,0,1
-1.62305103,2371,1,1,0,1
-1.6210979,2370,1,1,0,1
-1.61914477,2371,1,1,0,1
-1.61719164,2375,1,1,0,1
-1.61523851,2383,1,1,0,1
-1.61328538,2390,1,0,0,1
-1.61133225,2392,0,1,0,0
-1.60937912,2304,0,1,0,0
-1.60742599,0,0,1,1,0
-1.60547286,2413,1,1,0,1
-1.60351973,2421,1,1,0,1
-1.6015666,2427,1,1,0,1
-1.59961347,2434,1,1,0,1
-1.59766034,2436,1,1,0,1
-1.59570721,2438,1,1,0,1
-1.59375408,2439,1,1,0,1
-1.59180095,2443,1,1,0,1
-1.58984782,2447,1,1,0,1
-1.58789469,2453,1,1,0,1
-1.58594156,2458,1,1,0,1
-1.58398843,2461,1,1,0,1
-1.5820353,2466,1,1,0,1
-1.58008217,2470,1,1,0,1
-1.57812904,2479,1,1,0,1
-1.57617591,2490,1,1,0,1
-1.57422278,2500,1,1,0,1
-1.57226965,2513,1,1,0,1
-1.57031652,2524,1,1,0,1
-1.56836339,2533,1,1,0,1
-1.56641026,2539,1,1,0,1
-1.56445713,2543,1,1,0,1
-1.562504,2547,1,1,0,1
-1.56055087,2551,1,1,0,1
-1.55859774,2558,1,1,0,1
-1.55664461,2567,1,1,0,1
-1.55469148,2574,1,1,0,1
-1.55273835,2580,1,1,0,1
-1.55078522,2584,1,1,0,1
-1.54883209,2583,1,1,0,1
-1.54687896,2582,1,1,0,1
-1.54492583,2582,1,1,0,1
-1.5429727,2582,1,1,0,1
-1.54101957,2583,1,1,0,1
-1.53906644,2585,1,1,0,1
-1.53711331,2583,1,1,0,1
-1.53516018,2581,1,1,0,1
-1.53320705,2572,1,1,0,1
-1.53125392,2559,1,1,0,1
-1.52930079,2549,1,1,0,1
-1.52734766,2528,0,0,0,0
-1.52539453,2048,0,0,0,0
-1.5234414,0,0,1,0,0
-1.52148827,2523,1,1,0,1
-1.51953514,2517,1,1,0,1
-1.51758201,2507,1,1,0,1
-1.51562888,2499,1,1,0,1
-1.51367575,2487,1,1,0,1
-1.51172262,2474,1,1,0,1
-1.50976949,2455,1,1,0,1
-1.50781636,2442,1,1,0,1
-1.50586323,2429,1,1,0,1
-1.5039101,2414,1,1,0,1
-1.50195697,2399,1,1,0,1
-1.50000384,2381,1,1,0,1
-1.49805071,2362,1,1,0,1
-1.49609758,2343,1,1,0,1
-1.49414445,2326,1,1,0,1
-1.49219132,2311,1,1,0,1
-1.49023819,2295,1,1,0,1
-1.48828506,2279,1,1,0,1
-1.48633193,2261,1,1,0,1
-1.4843788,2239,1,1,0,1
-1.48242567,2213,1,1,0,1
-1.48047254,2186,1,1,0,1
-1.47851941,2162,1,1,0,1
-1.47656628,2141,1,1,0,1
-1.47461315,2121,1,1,0,1
-1.47266002,2097,1,1,0,1
-1.47070689,2071,1,1,0,1
-1.46875376,2042,1,1,0,1
-1.46680063,2012,1,1,0,1
-1.4648475,1979,1,1,0,1
-1.46289437,1945,1,1,0,1
-1.46094124,1909,1,1,0,1
-1.45898811,1875,1,1,0,1
-1.45703498,1845,1,1,0,1
-1.45508185,1818,1,1,0,1
-1.45312872,1794,1,1,0,1
-1.45117559,1770,1,1,0,1
-1.44922246,1750,1,1,0,1
-1.44726933,1729,1,1,0,1
-1.4453162,1706,0,1,0,0
-1.44336307,1664,0,0,0,0
-1.44140994,0,0,0,0,0
-1.43945681,0,0,1,1,0
-1.43750368,1657,1,1,0,1
-1.43555055,1646,1,1,0,1
-1.43359742,1636,1,1,0,1
-1.43164429,1625,1,1,0,1
-1.42969116,1615,1,1,0,1
-1.42773803,1607,1,1,0,1
-1.4257849,1599,1,1,0,1
-1.42383177,1593,1,1,0,1
-1.42187864,1590,1,1,0,1
-1.41992551,1589,1,1,0,1
-1.41797238,1590,1,1,0,1
-1.41601925,1591,1,1,0,1
-1.41406612,1595,1,1,0,1
-1.41211299,1599,1,1,0,1
-1.41015986,1606,1,1,0,1
-1.40820673,1614,1,1,0,1
-1.4062536,1622,1,1,0,1
-1.40430047,1630,1,1,0,1
-1.40234734,1636,1,1,0,1
-1.40039421,1641,1,1,0,1
-1.39844108,1646,1,1,0,1
-1.39648795,1650,1,1,0,1
-1.39453482,1653,1,1,0,1
-1.39258169,1657,1,1,0,1
-1.39062856,1666,1,1,0,1
-1.38867543,1673,1,1,0,1
-1.3867223,1677,1,1,0,1
-1.38476917,1681,1,1,0,1
-1.38281604,1686,1,1,0,1
-1.38086291,1695,1,1,0,1
-1.37890978,1705,1,1,0,1
-1.37695665,1713,1,1,0,1
-1.37500352,1719,1,1,0,1
-1.37305039,1725,1,1,0,1
-1.37109726,1730,1,1,0,1
-1.36914413,1733,1,1,0,1
-1.367191,1734,1,1,0,1
-1.36523787,1734,1,1,0,1
-1.36328474,1734,1,0,0,1
-1.36133161,1736,0,0,0,0
-1.35937848,1536,0,1,0,0
-1.35742535,0,0,1,1,0
-1.35547222,1751,1,1,0,1
-1.35351909,1761,1,1,0,1
-1.35156596,1770,1,1,0,1
-1.34961283,1780,1,1,0,1
-1.3476597,1787,1,1,0,1
-1.34570657,1791,1,1,0,1
-1.34375344,1797,1,1,0,1
-1.34180031,1801,1,1,0,1
-1.33984718,1804,1,1,0,1
-1.33789405,1807,1,1,0,1
-1.33594092,1810,1,1,0,1
-1.33398779,1809,1,1,0,1
-1.33203466,1803,1,1,0,1
-1.33008153,1797,1,1,0,1
-1.3281284,1791,1,1,0,1
-1.32617527,1790,1,1,0,1
-1.32422214,1791,1,1,0,1
-1.32226901,1795,1,1,0,1
-1.32031588,1799,1,1,0,1
-1.31836275,1805,1,1,0,1
-1.31640962,1809,1,1,0,1
-1.31445649,1811,1,1,0,1
-1.31250336,1815,1,1,0,1
-1.31055023,1818,1,1,0,1
-1.3085971,1823,1,1,0,1
-1.30664397,1832,1,1,0,1
-1.30469084,1841,1,1,0,1
-1.30273771,1845,1,1,0,1
-1.30078458,1847,1,1,0,1
-1.29883145,1846,1,1,0,1
-1.29687832,1847,1,1,0,1
-1.29492519,1847,1,1,0,1
-1.29297206,1849,1,1,0,1
-1.29101893,1854,1,1,0,1
-1.2890658,1861,1,1,0,1
-1.28711267,1867,1,1,0,1
-1.28515954,1871,1,1,0,1
-1.28320641,1873,1,1,0,1
-1.28125328,1873,1,1,0,1
-1.27930015,1873,1,1,0,1
-1.27734702,1872,0,1,0,0
-1.27539389,1024,0,1,0,0
-1.27344076,0,0,1,0,0
-1.27148763,1881,1,1,0,1
-1.2695345,1881,1,1,0,1
-1.26758137,1881,1,1,0,1
-1.26562824,1881,1,1,0,1
-1.26367511,1879,1,1,0,1
-1.26172198,1882,1,1,0,1
-1.25976885,1885,1,1,0,1
-1.25781572,1890,1,1,0,1
-1.25586259,1897,1,1,0,1
-1.25390946,1901,1,1,0,1
-1.25195633,1903,1,1,0,1
-1.2500032,1905,1,1,0,1
-1.24805007,1905,1,1,0,1
-1.24609694,1906,1,1,0,1
-1.24414381,1905,1,1,0,1
-1.24219068,1901,1,1,0,1
-1.24023755,1897,1,1,0,1
-1.23828442,1895,1,1,0,1
-1.23633129,1893,1,1,0,1
-1.23437816,1887,1,1,0,1
-1.23242503,1883,1,1,0,1
-1.2304719,1883,1,1,0,1
-1.22851877,1885,1,1,0,1
-1.22656564,1890,1,1,0,1
-1.22461251,1893,1,1,0,1
-1.22265938,1898,1,1,0,1
-1.22070625,1902,1,1,0,1
-1.21875312,1906,1,1,0,1
-1.21679999,1908,1,1,0,1
-1.21484686,1911,1,1,0,1
-1.21289373,1914,1,1,0,1
-1.2109406,1917,1,1,0,1
-1.20898747,1922,1,1,0,1
-1.20703434,1927,1,1,0,1
-1.20508121,1929,1,1,0,1
-1.20312808,1929,1,1,0,1
-1.20117495,1926,1,1,0,1
-1.19922182,1925,1,1,0,1
-1.19726869,1924,1,1,0,1
-1.19531556,1922,0,1,0,0
-1.19336243,1920,0,0,0,0
-1.1914093,0,0,0,0,0
-1.18945617,0,0,1,1,0
-1.18750304,1933,1,1,0,1
-1.18554991,1937,1,1,0,1
-1.18359678,1939,1,1,0,1
-1.18164365,1941,1,1,0,1
-1.17969052,1942,1,1,0,1
-1.17773739,1945,1,1,0,1
-1.17578426,1947,1,1,0,1
-1.17383113,1953,1,1,0,1
-1.171878,1957,1,1,0,1
-1.16992487,1959,1,1,0,1
-1.16797174,1959,1,1,0,1
-1.16601861,1957,1,1,0,1
-1.16406548,1956,1,1,0,1
-1.16211235,1954,1,1,0,1
-1.16015922,1950,1,1,0,1
-1.15820609,1949,1,1,0,1
-1.15625296,1951,1,1,0,1
-1.15429983,1959,1,1,0,1
-1.1523467,1966,1,1,0,1
-1.15039357,1972,1,1,0,1
-1.14844044,1978,1,1,0,1
-1.14648731,1981,1,1,0,1
-1.14453418,1981,1,1,0,1
-1.14258105,1981,1,1,0,1
-1.14062792,1981,1,1,0,1
-1.13867479,1983,1,1,0,1
-1.13672166,1985,1,1,0,1
-1.13476853,1987,1,1,0,1
-1.1328154,1987,1,1,0,1
-1.13086227,1987,1,1,0,1
-1.12890914,1987,1,1,0,1
-1.12695601,1987,1,1,0,1
-1.12500288,1990,1,1,0,1
-1.12304975,1995,1,1,0,1
-1.12109662,1998,1,1,0,1
-1.11914349,1999,1,1,0,1
-1.11719036,1999,1,1,0,1
-1.11523723,1998,1,1,0,1
-1.1132841,1995,1,1,0,1
-1.11133097,1992,0,0,0,0
-1.10937784,1792,0,1,0,0
-1.10742471,0,0,0,0,0
-1.10547158,1994,1,1,0,1
-1.10351845,1999,1,1,0,1
-1.10156532,2003,1,1,0,1
-1.09961219,2003,1,1,0,1
-1.09765906,2002,1,1,0,1
-1.09570593,2001,1,1,0,1
-1.0937528,1999,1,1,0,1
-1.09179967,1997,1,1,0,1
-1.08984654,1997,1,1,0,1
-1.08789341,1999,1,1,0,1
-1.08594028,1997,1,1,0,1
-1.08398715,1995,1,1,0,1
-1.08203402,1994,1,1,0,1
-1.08008089,1994,1,1,0,1
-1.07812776,1997,1,1,0,1
-1.07617463,2001,1,1,0,1
-1.0742215,2006,1,1,0,1
-1.07226837,2009,1,1,0,1
-1.07031524,2009,1,1,0,1
-1.06836211,2009,1,1,0,1
-1.06640898,2007,1,1,0,1
-1.06445585,2004,1,1,0,1
-1.06250272,2004,1,1,0,1
-1.06054959,2006,1,1,0,1
-1.05859646,2010,1,1,0,1
-1.05664333,2014,1,1,0,1
-1.0546902,2020,1,1,0,1
-1.05273707,2025,1,1,0,1
-1.05078394,2028,1,1,0,1
-1.04883081,2031,1,1,0,1
-1.04687768,2036,1,1,0,1
-1.04492455,2041,1,1,0,1
-1.04297142,2045,1,1,0,1
-1.04101829,2057,1,1,0,1
-1.03906516,2068,1,1,0,1
-1.03711203,2077,1,1,0,1
-1.0351589,2085,1,1,0,1
-1.03320577,2093,1,1,0,1
-1.03125264,2101,1,1,0,1
-1.02929951,2114,1,0,0,1
-1.02734638,2112,0,0,0,0
-1.02539325,2048,0,0,0,0
-1.02344012,0,0,1,0,0
-1.02148699,2148,1,1,0,1
-1.01953386,2154,1,1,0,1
-1.01758073,2154,1,1,0,1
-1.0156276,2149,1,1,0,1
-1.01367447,2141,1,1,0,1
-1.01172134,2138,1,1,0,1
-1.00976821,2137,1,1,0,1
-1.00781508,2138,1,1,0,1
-1.00586195,2141,1,1,0,1
-1.00390882,2143,1,1,0,1
-1.00195569,2146,1,1,0,1
-1.00000256,2143,1,1,0,1
-0.99804943,2142,1,1,0,1
-0.9960963,2143,1,1,0,1
-0.9941431700000001,2151,1,1,0,1
-0.99219004,2163,1,1,0,1
-0.99023691,2182,1,1,0,1
-0.9882837800000001,2202,1,1,0,1
-0.9863306500000001,2219,1,1,0,1
-0.98437752,2233,1,1,0,1
-0.98242439,2239,1,1,0,1
-0.9804712600000001,2242,1,1,0,1
-0.97851813,2237,1,1,0,1
-0.976565,2231,1,1,0,1
-0.97461187,2226,1,1,0,1
-0.9726587400000001,2221,1,1,0,1
-0.97070561,2217,1,1,0,1
-0.96875248,2210,1,1,0,1
-0.9667993500000001,2198,1,1,0,1
-0.96484622,2183,1,1,0,1
-0.96289309,2167,1,1,0,1
-0.96093996,2157,1,1,0,1
-0.9589868300000001,2150,1,1,0,1
-0.9570337,2143,1,1,0,1
-0.95508057,2134,1,1,0,1
-0.95312744,2119,1,1,0,1
-0.9511743100000001,2091,1,1,0,1
-0.94922118,2052,1,1,0,1
-0.94726805,2005,1,1,0,1
-0.9453149200000001,1962,0,1,0,0
-0.94336179,1920,0,0,0,0
-0.94140866,0,0,1,0,0
-0.93945553,0,0,1,1,0
-0.9375024000000001,1871,1,1,0,1
-0.93554927,1858,1,1,0,1
-0.93359614,1851,1,1,0,1
-0.93164301,1853,1,1,0,1
-0.9296898800000001,1862,1,1,0,1
-0.92773675,1873,1,1,0,1
-0.92578362,1885,1,1,0,1
-0.9238304900000001,1895,1,1,0,1
-0.92187736,1903,1,1,0,1
-0.91992423,1913,1,1,0,1
-0.9179711,1924,1,1,0,1
-0.9160179700000001,1931,1,1,0,1
-0.91406484,1939,1,1,0,1
-0.91211171,1946,1,1,0,1
-0.9101585800000001,1949,1,1,0,1
